<Qucs Dataset 0.0.15>
<indep x 10>
  +5.00000000000e+00
  +1.00000000000e+01
  +1.50000000000e+01
  +2.00000000000e+01
  +2.50000000000e+01
  +3.00000000000e+01
  +3.50000000000e+01
  +4.00000000000e+01
  +4.50000000000e+01
  +5.00000000000e+01
</indep>
<dep V1.I x>
  -1.75000000000e+00
  -9.54545454545e-01
  -6.56250000000e-01
  -5.00000000000e-01
  -4.03846153846e-01
  -3.38709677419e-01
  -2.91666666667e-01
  -2.56097560976e-01
  -2.28260869565e-01
  -2.05882352941e-01
</dep>
<dep theExit.V x>
  +8.75000000000e+00
  +9.54545454545e+00
  +9.84375000000e+00
  +1.00000000000e+01
  +1.00961538462e+01
  +1.01612903226e+01
  +1.02083333333e+01
  +1.02439024390e+01
  +1.02717391304e+01
  +1.02941176471e+01
</dep>
<dep _net0.V x>
  +1.05000000000e+01
  +1.05000000000e+01
  +1.05000000000e+01
  +1.05000000000e+01
  +1.05000000000e+01
  +1.05000000000e+01
  +1.05000000000e+01
  +1.05000000000e+01
  +1.05000000000e+01
  +1.05000000000e+01
</dep>
